Time (s)	VDS	IDS	VG	IGS
4.2000000000000003E-2	-1.0000000000000000E+0	-5.3444146885794907E-8	0.0000000000000000E+0	4.0191174832671088E-8
1.0640000000000001E+0	-1.0000000000000000E+0	-2.8770219984153300E-8	5.9999998658895493E-2	3.0365956860123333E-8
1.9970000000000001E+0	-1.0000000000000000E+0	-2.4932266029509261E-8	1.1999999731779100E-1	2.7352584197615218E-8
4.1740000000000004E+0	-1.0000000000000000E+0	-2.7158760573797739E-8	1.8000000715255740E-1	3.0729484734592922E-8
4.9980000000000002E+0	-1.0000000000000000E+0	-2.9372548837613980E-8	2.3999999463558200E-1	3.3653702047331542E-8
5.9989999999999997E+0	-1.0000000000000000E+0	-3.2277299055749609E-8	3.0000001192092901E-1	3.7077285242048668E-8
6.9980000000000002E+0	-1.0000000000000000E+0	-3.5565044242957811E-8	3.6000001430511469E-1	4.1032674147345460E-8
7.9969999999999999E+0	-1.0000000000000000E+0	-3.9883030211740327E-8	4.1999998688697809E-1	4.5367908541038559E-8
8.9979999999999993E+0	-1.0000000000000000E+0	-4.4295418888395943E-8	4.7999998927116388E-1	5.0335049905925189E-8
9.9979999999999993E+0	-1.0000000000000000E+0	-4.9505722188314387E-8	5.4000002145767212E-1	5.5585228864174503E-8
1.0996000000000000E+1	-1.0000000000000000E+0	-3.8831128534866372E-8	4.7999998927116388E-1	3.7872840863428792E-8
1.1996000000000000E+1	-1.0000000000000000E+0	-3.0299187159243963E-8	4.1999998688697809E-1	2.7632713894831798E-8
1.2996000000000000E+1	-1.0000000000000000E+0	-2.3641444357735960E-8	3.6000001430511469E-1	2.0050109128533219E-8
1.3997000000000000E+1	-1.0000000000000000E+0	-1.8490482034394521E-8	3.0000001192092901E-1	1.4217770072377790E-8
1.4997000000000000E+1	-1.0000000000000000E+0	-1.4626860611599570E-8	2.3999999463558200E-1	1.0639679359769619E-8
1.6309999999999999E+1	-1.0000000000000000E+0	-1.1444258873893890E-8	1.8000000715255740E-1	5.7574154332939997E-9
1.6998999999999999E+1	-1.0000000000000000E+0	-9.0505478667068928E-9	1.1999999731779100E-1	2.8343558611254589E-9
1.8000000000000000E+1	-1.0000000000000000E+0	-7.0125580897695272E-9	5.9999998658895493E-2	1.0782480464044400E-10
1.8998000000000001E+1	-1.0000000000000000E+0	-5.3534270350041879E-9	0.0000000000000000E+0	-2.2754549355852301E-9
1.9998000000000001E+1	-1.0000000000000000E+0	-3.9256096151518696E-9	-5.9999998658895493E-2	-4.5733572484607521E-9
2.0998999999999999E+1	-1.0000000000000000E+0	-2.7153372883503830E-9	-1.1999999731779100E-1	-6.7428591599139054E-9
2.2001999999999999E+1	-1.0000000000000000E+0	-2.5127173675087988E-9	-1.8000000715255740E-1	-6.0084941466698183E-9
2.3928000000000001E+1	-1.0000000000000000E+0	-1.1510848940687881E-9	-2.3999999463558200E-1	-9.6588497200400525E-9
2.5009000000000000E+1	-1.0000000000000000E+0	-3.5462380254536191E-10	-3.0000001192092901E-1	-1.2091767587207871E-8
2.5997000000000000E+1	-1.0000000000000000E+0	-1.1749268225003109E-10	-3.6000001430511469E-1	-1.3753080452261200E-8
2.7001000000000001E+1	-1.0000000000000000E+0	-2.1291970964121279E-10	-4.1999998688697809E-1	-1.5268385666900031E-8
2.7998999999999999E+1	-1.0000000000000000E+0	-1.1610508110493360E-9	-4.7999998927116388E-1	-1.6447771145067239E-8
2.8998999999999999E+1	-1.0000000000000000E+0	-3.3591269765764760E-9	-5.4000002145767212E-1	-1.7378663841327580E-8
2.9997000000000000E+1	-1.0000000000000000E+0	-8.2220079633543719E-9	-6.0000002384185791E-1	-1.8083298414239831E-8
3.0997000000000000E+1	-1.0000000000000000E+0	-1.7958164733045120E-8	-6.6000002622604370E-1	-1.7881262692753811E-8
3.2063000000000002E+1	-1.0000000000000000E+0	-3.6934434177737778E-8	-7.2000002861022949E-1	-1.9026112241249390E-8
3.2997999999999998E+1	-1.0000000000000000E+0	-7.1998705664100271E-8	-7.7999997138977051E-1	-1.9476033230603210E-8
3.3997999999999998E+1	-1.0000000000000000E+0	-1.3726854319884299E-7	-8.3999997377395630E-1	-1.9699394115946230E-8
3.5015000000000001E+1	-1.0000000000000000E+0	-2.3538828486380231E-7	-8.9999997615814209E-1	-2.0953702772885659E-8
3.6000000000000000E+1	-1.0000000000000000E+0	-3.9096616433198511E-7	-9.5999997854232788E-1	-2.2243858310844189E-8
3.7000000000000000E+1	-1.0000000000000000E+0	-6.1386276684061159E-7	-1.0199999809265139E+0	-2.4079811922206321E-8
3.7999000000000002E+1	-1.0000000000000000E+0	-9.1081784603375127E-7	-1.0800000429153440E+0	-2.6264084240779081E-8
3.8999000000000002E+1	-1.0000000000000000E+0	-1.2884532907264661E-6	-1.1399999856948850E+0	-2.8469109736306560E-8
4.0015000000000001E+1	-1.0000000000000000E+0	-1.6956042827587230E-6	-1.2000000476837160E+0	-3.2534671845496632E-8
4.0997999999999998E+1	-1.0000000000000000E+0	-2.1583032321359501E-6	-1.2599999904632571E+0	-2.6672697828189481E-8
4.3255000000000003E+1	-1.0000000000000000E+0	-2.7221142318012430E-6	-1.3200000524520870E+0	-3.7873245872788168E-8
4.3997999999999998E+1	-1.0000000000000000E+0	-3.2104383080877601E-6	-1.3799999952316280E+0	-4.2835246460981580E-8
4.4999000000000002E+1	-1.0000000000000000E+0	-3.7167990285524870E-6	-1.4400000572204590E+0	-4.7641943723419899E-8
4.5999000000000002E+1	-1.0000000000000000E+0	-4.2294454942748416E-6	-1.5000000000000000E+0	-5.2274788941986117E-8
4.7000000000000000E+1	-1.0000000000000000E+0	-4.7475050450884737E-6	-1.5599999427795410E+0	-5.5939697318763137E-8
4.8064000000000000E+1	-1.0000000000000000E+0	-5.2605032578867386E-6	-1.6200000047683720E+0	-6.1940966133988695E-8
4.8997999999999998E+1	-1.0000000000000000E+0	-5.7596885199018288E-6	-1.6799999475479130E+0	-6.6981577617752919E-8
4.9999000000000002E+1	-1.0000000000000000E+0	-6.2440203691949137E-6	-1.7400000095367429E+0	-7.2430111686117016E-8
5.0997999999999998E+1	-1.0000000000000000E+0	-6.7128776208846830E-6	-1.7999999523162840E+0	-7.8008483228586556E-8
5.2000000000000000E+1	-1.0000000000000000E+0	-7.1672197918815073E-6	-1.8600000143051150E+0	-8.3916617654722358E-8
5.3000000000000000E+1	-1.0000000000000000E+0	-7.6031433309253771E-6	-1.9199999570846560E+0	-9.0238550853882770E-8
5.3997000000000000E+1	-1.0000000000000000E+0	-8.0359459389001131E-6	-1.9800000190734861E+0	-9.6747221789428295E-8
5.4999000000000002E+1	-1.0000000000000000E+0	-8.4522662291419692E-6	-2.0399999618530269E+0	-1.0521924309614409E-7
5.6014000000000003E+1	-1.0000000000000000E+0	-8.8656152001931332E-6	-2.0999999046325679E+0	-1.1128651777880799E-7
5.6997999999999998E+1	-1.0000000000000000E+0	-9.2712616606149823E-6	-2.1600000858306880E+0	-1.1911451736068559E-7
5.7997999999999998E+1	-1.0000000000000000E+0	-9.6729454526212066E-6	-2.2200000286102290E+0	-1.2750125222282799E-7
5.9017000000000003E+1	-1.0000000000000000E+0	-1.0076844773720950E-5	-2.2799999713897710E+0	-1.3649534480464351E-7
6.0015000000000001E+1	-1.0000000000000000E+0	-1.0453379218233749E-5	-2.3399999141693120E+0	-1.4684212601423499E-7
6.0997000000000000E+1	-1.0000000000000000E+0	-1.0980998922605069E-5	-2.4000000953674321E+0	-1.5454601509645729E-7
6.2991000000000000E+1	-1.0000000000000000E+0	-1.1312436981825160E-5	-2.4600000381469731E+0	-1.6669380897837979E-7
6.4061999999999998E+1	-1.0000000000000000E+0	-1.1621951671259010E-5	-2.5199999809265141E+0	-1.8041657767753350E-7
6.5004999999999995E+1	-1.0000000000000000E+0	-1.1620354598562701E-5	-2.4600000381469731E+0	-1.5664768682199790E-7
6.5997000000000000E+1	-1.0000000000000000E+0	-1.1487257324915840E-5	-2.4000000953674321E+0	-1.4104580259299840E-7
6.6998999999999995E+1	-1.0000000000000000E+0	-1.1297845958324610E-5	-2.3399999141693120E+0	-1.2740552790546639E-7
6.7997000000000000E+1	-1.0000000000000000E+0	-1.1057722076657230E-5	-2.2799999713897710E+0	-1.1504805286222110E-7
6.8998000000000005E+1	-1.0000000000000000E+0	-1.0788046893139841E-5	-2.2200000286102290E+0	-1.0313522835758700E-7
6.9998999999999995E+1	-1.0000000000000000E+0	-1.0493945410416931E-5	-2.1600000858306880E+0	-8.9991651464060851E-8
7.1015000000000000E+1	-1.0000000000000000E+0	-1.0173534974455830E-5	-2.0999999046325679E+0	-8.0418040226959419E-8
7.1997000000000000E+1	-1.0000000000000000E+0	-9.8211658041691408E-6	-2.0399999618530269E+0	-7.0142853303423180E-8
7.3015000000000000E+1	-1.0000000000000000E+0	-9.4773849923512898E-6	-1.9800000190734861E+0	-5.9491146231493992E-8
7.3998000000000005E+1	-1.0000000000000000E+0	-9.0942830865969881E-6	-1.9199999570846560E+0	-4.9652530975663467E-8
7.5000000000000000E+1	-1.0000000000000000E+0	-8.6896634456934407E-6	-1.8600000143051150E+0	-4.0158688818792143E-8
7.5998000000000005E+1	-1.0000000000000000E+0	-8.2567894423846155E-6	-1.7999999523162840E+0	-3.1389355115152278E-8
7.6998999999999995E+1	-1.0000000000000000E+0	-7.7978747867746279E-6	-1.7400000095367429E+0	-2.3244631108809699E-8
7.8135999999999996E+1	-1.0000000000000000E+0	-7.2991870183614083E-6	-1.6799999475479130E+0	-1.5383696094772858E-8
7.8998999999999995E+1	-1.0000000000000000E+0	-6.7569385464594234E-6	-1.6200000047683720E+0	-9.8511101498388598E-9
8.0069000000000003E+1	-1.0000000000000000E+0	-6.1802220443496481E-6	-1.5599999427795410E+0	-2.6263713426288859E-9
8.0995999999999995E+1	-1.0000000000000000E+0	-5.5550062825204796E-6	-1.5000000000000000E+0	7.8483819443420088E-10
8.2650000000000006E+1	-1.0000000000000000E+0	-4.9842783482745290E-6	-1.4400000572204590E+0	8.2084179453545403E-9
8.2997000000000000E+1	-1.0000000000000000E+0	-4.1872212932503317E-6	-1.3799999952316280E+0	7.8951361004442333E-9
8.4051000000000002E+1	-1.0000000000000000E+0	-3.6023984648636538E-6	-1.3200000524520870E+0	1.2494969503507040E-8
8.4997000000000000E+1	-1.0000000000000000E+0	-2.9991244900884340E-6	-1.2599999904632571E+0	1.4978313700453331E-8
8.5998000000000005E+1	-1.0000000000000000E+0	-2.4626897356938571E-6	-1.2000000476837160E+0	1.7551995412645741E-8
8.6998999999999995E+1	-1.0000000000000000E+0	-1.9977176179963858E-6	-1.1399999856948850E+0	2.0325517269270680E-8
8.7998000000000005E+1	-1.0000000000000000E+0	-1.6009902310543109E-6	-1.0800000429153440E+0	2.3209047128602830E-8
8.9000000000000000E+1	-1.0000000000000000E+0	-1.2721776556645641E-6	-1.0199999809265139E+0	2.6501083993935029E-8
8.9997000000000000E+1	-1.0000000000000000E+0	-9.9391866115183802E-7	-9.5999997854232788E-1	2.9551326719001739E-8
9.1015000000000000E+1	-1.0000000000000000E+0	-7.7508531148851034E-7	-8.9999997615814209E-1	3.3217240513749857E-8
9.1998999999999995E+1	-1.0000000000000000E+0	-5.8907971833832562E-7	-8.3999997377395630E-1	3.6070215259087490E-8
9.2998000000000005E+1	-1.0000000000000000E+0	-4.3476222799654352E-7	-7.7999997138977051E-1	3.8244714062329883E-8
9.3997000000000000E+1	-1.0000000000000000E+0	-3.0970358011472849E-7	-7.2000002861022949E-1	3.9619052927264420E-8
9.4998999999999995E+1	-1.0000000000000000E+0	-2.1152162332782609E-7	-6.6000002622604370E-1	3.9405573915018983E-8
9.6063999999999993E+1	-1.0000000000000000E+0	-1.3705647461392800E-7	-6.0000002384185791E-1	3.9495240855558222E-8
9.7000000000000000E+1	-1.0000000000000000E+0	-8.1534722085052635E-8	-5.4000002145767212E-1	3.7955366849473648E-8
9.8013000000000005E+1	-1.0000000000000000E+0	-5.0208594615241957E-8	-4.7999998927116388E-1	3.6859919561038623E-8
9.8998000000000005E+1	-1.0000000000000000E+0	-2.9872083473492239E-8	-4.1999998688697809E-1	3.6281395665582750E-8
9.9995999999999995E+1	-1.0000000000000000E+0	-1.3224470407635641E-8	-3.6000001430511469E-1	2.5486922794470960E-8
1.0220500000000000E+2	-1.0000000000000000E+0	-1.2138283267404401E-8	-3.0000001192092901E-1	3.2547642803137933E-8
1.0299800000000000E+2	-1.0000000000000000E+0	-1.2140774607871659E-8	-2.3999999463558200E-1	3.5099866124710388E-8
1.0399900000000000E+2	-1.0000000000000000E+0	-1.3350772931630671E-8	-1.8000000715255740E-1	3.7082337200899928E-8
1.0499800000000000E+2	-1.0000000000000000E+0	-1.5033316813628520E-8	-1.1999999731779100E-1	3.8689076831133207E-8
1.0599800000000000E+2	-1.0000000000000000E+0	-1.6746879438755972E-8	-5.9999998658895493E-2	4.0211784124721823E-8
1.0699700000000000E+2	-1.0000000000000000E+0	-1.8386149491789180E-8	0.0000000000000000E+0	4.1601300182492202E-8
1.0799900000000000E+2	-1.0000000000000000E+0	-2.0071459161385970E-8	5.9999998658895493E-2	4.2945863754084712E-8
1.0899700000000000E+2	-1.0000000000000000E+0	-2.1912228476139720E-8	1.1999999731779100E-1	4.4228603002238742E-8
1.1000100000000000E+2	-1.0000000000000000E+0	-2.4040366142230599E-8	1.8000000715255740E-1	4.5638454793106582E-8
1.1099900000000000E+2	-1.0000000000000000E+0	-2.6597691160645809E-8	2.3999999463558200E-1	4.6713378054619170E-8
1.1206600000000000E+2	-1.0000000000000000E+0	-2.9676533230826859E-8	3.0000001192092901E-1	4.9389434764179902E-8
1.1299800000000000E+2	-1.0000000000000000E+0	-3.3394051968116400E-8	3.6000001430511469E-1	5.1743793250125243E-8
1.1400000000000000E+2	-1.0000000000000000E+0	-3.7930931284790858E-8	4.1999998688697809E-1	5.4669236249083042E-8
1.1500000000000000E+2	-1.0000000000000000E+0	-4.3257202264612722E-8	4.7999998927116388E-1	5.8270373415325587E-8
1.1599700000000000E+2	-1.0000000000000000E+0	-4.9210310493208447E-8	5.4000002145767212E-1	6.2543165313400095E-8
1.1699800000000000E+2	-1.0000000000000000E+0	-3.9737273027640192E-8	4.7999998927116388E-1	4.3090498280662359E-8
1.1799800000000000E+2	-1.0000000000000000E+0	-3.1557476631860481E-8	4.1999998688697809E-1	3.1777680931099887E-8
1.1899700000000000E+2	-1.0000000000000000E+0	-2.4987198088410881E-8	3.6000001430511469E-1	2.3340213317624151E-8
1.1999800000000000E+2	-1.0000000000000000E+0	-1.9533121786707849E-8	3.0000001192092901E-1	1.6717445205927109E-8
1.2194799999999999E+2	-1.0000000000000000E+0	-1.5353132098994141E-8	2.3999999463558200E-1	1.1321592552349101E-8
1.2299900000000000E+2	-1.0000000000000000E+0	-1.2183833497658720E-8	1.8000000715255740E-1	7.0737957713618016E-9
1.2400000000000000E+2	-1.0000000000000000E+0	-9.6934442694873723E-9	1.1999999731779100E-1	3.6028742211868799E-9
1.2500200000000000E+2	-1.0000000000000000E+0	-7.7030302136904538E-9	5.9999998658895493E-2	4.0915013044262588E-10
1.2599900000000000E+2	-1.0000000000000000E+0	-5.9430003140903409E-9	0.0000000000000000E+0	-2.2148252121212408E-9
1.2699800000000000E+2	-1.0000000000000000E+0	-4.5037151785720653E-9	-5.9999998658895493E-2	-4.1315915133566250E-9
1.2806399999999999E+2	-1.0000000000000000E+0	-3.2844067465731541E-9	-1.1999999731779100E-1	-7.1789623135032343E-9
1.2899900000000000E+2	-1.0000000000000000E+0	-2.2312760528109270E-9	-1.8000000715255740E-1	-9.5071559513826287E-9
1.2999799999999999E+2	-1.0000000000000000E+0	-1.3777613494525549E-9	-2.3999999463558200E-1	-1.1730504567708520E-8
1.3099700000000001E+2	-1.0000000000000000E+0	-8.0516338041292101E-10	-3.0000001192092901E-1	-1.3668942422384591E-8
1.3200000000000000E+2	-1.0000000000000000E+0	-4.9039128313665969E-10	-3.6000001430511469E-1	-1.5459335145351360E-8
1.3299799999999999E+2	-1.0000000000000000E+0	-5.9512855754562110E-10	-4.1999998688697809E-1	-1.6503847177773420E-8
1.3401499999999999E+2	-1.0000000000000000E+0	-1.4230608913479159E-9	-4.7999998927116388E-1	-1.8019843395222779E-8
1.3499600000000001E+2	-1.0000000000000000E+0	-3.4877181143144749E-9	-5.4000002145767212E-1	-1.8777788213242271E-8
1.3599600000000001E+2	-1.0000000000000000E+0	-8.0286977066634790E-9	-6.0000002384185791E-1	-1.9266641615445220E-8
1.3699700000000001E+2	-1.0000000000000000E+0	-1.7295111121029549E-8	-6.6000002622604370E-1	-1.9625627345476460E-8
1.3799700000000001E+2	-1.0000000000000000E+0	-3.5324131175684670E-8	-7.2000002861022949E-1	-1.9809258233749460E-8
1.3899799999999999E+2	-1.0000000000000000E+0	-6.8699755217949132E-8	-7.7999997138977051E-1	-2.0122636001929098E-8
1.3999799999999999E+2	-1.0000000000000000E+0	-1.4058244346415449E-7	-8.3999997377395630E-1	-1.8479145325045468E-8
1.4160400000000001E+2	-1.0000000000000000E+0	-2.1483432988134149E-7	-8.9999997615814209E-1	-2.2881961214693550E-8
1.4199700000000001E+2	-1.0000000000000000E+0	-3.6357437238621060E-7	-9.5999997854232788E-1	-2.3226892409411451E-8
1.4299900000000000E+2	-1.0000000000000000E+0	-5.7331146763317520E-7	-1.0199999809265139E+0	-2.3588096809135098E-8
1.4406600000000000E+2	-1.0000000000000000E+0	-8.5910079405948636E-7	-1.0800000429153440E+0	-2.6416099530024439E-8
1.4500000000000000E+2	-1.0000000000000000E+0	-1.2292945257286190E-6	-1.1399999856948850E+0	-2.8155850984035169E-8
1.4601599999999999E+2	-1.0000000000000000E+0	-1.6369735931220930E-6	-1.2000000476837160E+0	-3.1805420519503968E-8
1.4699700000000001E+2	-1.0000000000000000E+0	-2.1061980532977032E-6	-1.2599999904632571E+0	-3.5280372401302877E-8
1.4799799999999999E+2	-1.0000000000000000E+0	-2.6056479782710080E-6	-1.3200000524520870E+0	-3.9268325480179562E-8
1.4899700000000001E+2	-1.0000000000000000E+0	-3.1269978535419800E-6	-1.3799999952316280E+0	-4.3289031026461089E-8
1.4999799999999999E+2	-1.0000000000000000E+0	-3.6649189496529289E-6	-1.4400000572204590E+0	-4.7498048161287443E-8
1.5099600000000001E+2	-1.0000000000000000E+0	-4.2142460188188116E-6	-1.5000000000000000E+0	-5.1700769887474962E-8
1.5199700000000001E+2	-1.0000000000000000E+0	-4.7680782699899282E-6	-1.5599999427795410E+0	-5.6134616954750527E-8
1.5299700000000001E+2	-1.0000000000000000E+0	-5.3168687372817658E-6	-1.6200000047683720E+0	-6.0780784849612246E-8
1.5399700000000001E+2	-1.0000000000000000E+0	-5.8527621149551123E-6	-1.6799999475479130E+0	-6.5710118235529080E-8
1.5499799999999999E+2	-1.0000000000000000E+0	-6.3729107750987168E-6	-1.7400000095367429E+0	-7.0969797150155500E-8
1.5599799999999999E+2	-1.0000000000000000E+0	-6.8721710704267017E-6	-1.7999999523162840E+0	-7.6583290820053662E-8
1.5699799999999999E+2	-1.0000000000000000E+0	-7.3523792707419489E-6	-1.8600000143051150E+0	-8.2490828390291426E-8
1.5799900000000000E+2	-1.0000000000000000E+0	-7.8156208473956212E-6	-1.9199999570846560E+0	-8.8844046786107355E-8
1.5899700000000001E+2	-1.0000000000000000E+0	-8.4097418948658742E-6	-1.9800000190734861E+0	-8.8823220778522227E-8
1.6124700000000001E+2	-1.0000000000000000E+0	-8.8182196122943424E-6	-2.0399999618530269E+0	-9.8923770508463349E-8
1.6199799999999999E+2	-1.0000000000000000E+0	-9.2490909082698636E-6	-2.0999999046325679E+0	-1.0844457420944310E-7
1.6301599999999999E+2	-1.0000000000000000E+0	-9.6687335826572962E-6	-2.1600000858306880E+0	-1.1573410318987949E-7
1.6399799999999999E+2	-1.0000000000000000E+0	-1.0091244803334121E-5	-2.2200000286102290E+0	-1.2451386055545299E-7
1.6501599999999999E+2	-1.0000000000000000E+0	-1.0478973308636340E-5	-2.2799999713897710E+0	-1.3455760949909751E-7
1.6599799999999999E+2	-1.0000000000000000E+0	-1.0871755875996311E-5	-2.3399999141693120E+0	-1.4483367749562601E-7
1.6699799999999999E+2	-1.0000000000000000E+0	-1.1242544132983310E-5	-2.4000000953674321E+0	-1.5580117462832280E-7
1.6799600000000001E+2	-1.0000000000000000E+0	-1.1594021088967571E-5	-2.4600000381469731E+0	-1.6761541132837010E-7
1.6899600000000001E+2	-1.0000000000000000E+0	-1.1924052159884010E-5	-2.5199999809265141E+0	-1.8033098569958381E-7
1.6999600000000001E+2	-1.0000000000000000E+0	-1.1942279343202239E-5	-2.4600000381469731E+0	-1.5576696910102330E-7
1.7099700000000001E+2	-1.0000000000000000E+0	-1.1822258784377480E-5	-2.4000000953674321E+0	-1.3981390623030171E-7
1.7199700000000001E+2	-1.0000000000000000E+0	-1.1630487279035149E-5	-2.3399999141693120E+0	-1.2614333400051689E-7
1.7299799999999999E+2	-1.0000000000000000E+0	-1.1386060577933680E-5	-2.2799999713897710E+0	-1.1368393870725410E-7
1.7399799999999999E+2	-1.0000000000000000E+0	-1.1093592547695151E-5	-2.2200000286102290E+0	-1.0210573719859891E-7
1.7500000000000000E+2	-1.0000000000000000E+0	-1.0775279406516350E-5	-2.1600000858306880E+0	-8.9123801672030822E-8
1.7601499999999999E+2	-1.0000000000000000E+0	-1.0432886483613400E-5	-2.0999999046325679E+0	-8.0679420477736130E-8
1.7706500000000000E+2	-1.0000000000000000E+0	-1.0068141818919680E-5	-2.0399999618530269E+0	-6.9303027316891530E-8
1.7799900000000000E+2	-1.0000000000000000E+0	-9.6734056569403038E-6	-1.9800000190734861E+0	-5.9541285679642897E-8
1.7901400000000001E+2	-1.0000000000000000E+0	-9.3147573352325708E-6	-1.9199999570846560E+0	-5.0210832824859608E-8
1.8075899999999999E+2	-1.0000000000000000E+0	-8.9003624452743679E-6	-1.8600000143051150E+0	-3.8342989228112862E-8
1.8099700000000001E+2	-1.0000000000000000E+0	-8.4088169387541711E-6	-1.7999999523162840E+0	-3.1023752455894282E-8
1.8199900000000000E+2	-1.0000000000000000E+0	-7.9327564890263602E-6	-1.7400000095367429E+0	-2.2830402457429951E-8
