Time (s)	Vds (V)	Ids (A)	Vgs (V)	Igs (A)
3.9000000000000000E-2	-1.0000000000000000E+0	-1.2858033748841540E-8	0.0000000000000000E+0	3.5202241122078697E-8
1.7589999999999999E+0	-1.0000000000000000E+0	-1.3216400418514240E-8	5.9999998658895493E-2	3.8901411869574083E-8
2.5480000000000000E+0	-1.0000000000000000E+0	-1.3296854284305940E-8	1.1999999731779100E-1	4.0276994184296200E-8
3.5499999999999998E+0	-1.0000000000000000E+0	-1.3661288988942030E-8	1.8000000715255740E-1	4.1334843103868479E-8
4.5480000000000000E+0	-1.0000000000000000E+0	-1.4249431856683261E-8	2.3999999463558200E-1	4.2050789517134042E-8
5.5460000000000003E+0	-1.0000000000000000E+0	-1.5054929747293499E-8	3.0000001192092901E-1	4.2437910963144532E-8
6.5460000000000003E+0	-1.0000000000000000E+0	-1.6151679105291808E-8	3.6000001430511469E-1	4.2413436318611282E-8
7.5659999999999998E+0	-1.0000000000000000E+0	-1.7542099328693439E-8	4.1999998688697809E-1	4.2848348869029002E-8
8.6129999999999995E+0	-1.0000000000000000E+0	-1.9372391690808399E-8	4.7999998927116388E-1	4.4172431046263227E-8
9.5470000000000006E+0	-1.0000000000000000E+0	-2.1654296133988279E-8	5.4000002145767212E-1	4.5546507010385539E-8
1.0547000000000001E+1	-1.0000000000000000E+0	-1.8866204598566579E-8	4.7999998927116388E-1	3.2066214572523677E-8
1.1547000000000001E+1	-1.0000000000000000E+0	-1.6325378382475719E-8	4.1999998688697809E-1	2.3731816511940451E-8
1.2548000000000000E+1	-1.0000000000000000E+0	-1.4031147799187240E-8	3.6000001430511469E-1	1.7305755051211239E-8
1.3548000000000000E+1	-1.0000000000000000E+0	-1.2004268690191109E-8	3.0000001192092901E-1	1.2179482311580611E-8
1.4547000000000001E+1	-1.0000000000000000E+0	-1.0240685632822989E-8	2.3999999463558200E-1	8.0546502800871167E-9
1.5548000000000000E+1	-1.0000000000000000E+0	-8.7249398816879875E-9	1.8000000715255740E-1	4.6512722562397357E-9
1.6547000000000001E+1	-1.0000000000000000E+0	-7.4236035096930663E-9	1.1999999731779100E-1	1.8439054727537041E-9
1.7547999999999998E+1	-1.0000000000000000E+0	-6.3282015183574458E-9	5.9999998658895493E-2	-5.1282644797367993E-10
1.8547000000000001E+1	-1.0000000000000000E+0	-5.3742885697261036E-9	0.0000000000000000E+0	-2.5229334177367950E-9
1.9547000000000001E+1	-1.0000000000000000E+0	-4.7389030477518190E-9	-5.9999998658895493E-2	-2.8387427963849632E-9
2.1405000000000001E+1	-1.0000000000000000E+0	-3.9776564264570879E-9	-1.1999999731779100E-1	-4.8769472904552913E-9
2.2547999999999998E+1	-1.0000000000000000E+0	-3.3360123552483860E-9	-1.8000000715255740E-1	-6.9132091162771303E-9
2.3547000000000001E+1	-1.0000000000000000E+0	-2.7793287671329381E-9	-2.3999999463558200E-1	-8.3374258608159834E-9
2.4611999999999998E+1	-1.0000000000000000E+0	-2.3685218231150880E-9	-3.0000001192092901E-1	-1.0517835491441471E-8
2.5545999999999999E+1	-1.0000000000000000E+0	-2.0270944922629042E-9	-3.6000001430511469E-1	-1.2235808810601160E-8
2.6545999999999999E+1	-1.0000000000000000E+0	-1.8278002444915840E-9	-4.1999998688697809E-1	-1.3897359707470970E-8
2.7547000000000001E+1	-1.0000000000000000E+0	-1.7702818100318041E-9	-4.7999998927116388E-1	-1.5451657731091469E-8
2.8547999999999998E+1	-1.0000000000000000E+0	-1.8926860079204739E-9	-5.4000002145767212E-1	-1.6904699862152480E-8
2.9547000000000001E+1	-1.0000000000000000E+0	-2.2656798659426158E-9	-6.0000002384185791E-1	-1.8187011008308221E-8
3.0547999999999998E+1	-1.0000000000000000E+0	-2.9903530762709352E-9	-6.6000002622604370E-1	-1.9317949906394460E-8
3.1547999999999998E+1	-1.0000000000000000E+0	-4.3132186711147824E-9	-7.2000002861022949E-1	-2.0304154801920049E-8
3.2548000000000002E+1	-1.0000000000000000E+0	-6.6213847738083586E-9	-7.7999997138977051E-1	-2.1176958853175168E-8
3.3548000000000002E+1	-1.0000000000000000E+0	-1.0643756098716040E-8	-8.3999997377395630E-1	-2.1977102804271450E-8
3.4548000000000002E+1	-1.0000000000000000E+0	-1.7444550692857771E-8	-8.9999997615814209E-1	-2.2741783567425948E-8
3.5548000000000002E+1	-1.0000000000000000E+0	-2.8712117128293361E-8	-9.5999997854232788E-1	-2.3472273014135680E-8
3.6546999999999997E+1	-1.0000000000000000E+0	-4.6964647282266008E-8	-1.0199999809265139E+0	-2.4214148908185958E-8
3.7548000000000002E+1	-1.0000000000000000E+0	-7.6036194229800458E-8	-1.0800000429153440E+0	-2.4893640926393349E-8
3.8546999999999997E+1	-1.0000000000000000E+0	-1.2467134524740689E-7	-1.1399999856948850E+0	-2.5334120579145750E-8
3.9564999999999998E+1	-1.0000000000000000E+0	-2.0721900284570441E-7	-1.2000000476837160E+0	-2.4176072699333421E-8
4.1063000000000002E+1	-1.0000000000000000E+0	-2.8282570951887459E-7	-1.2599999904632571E+0	-2.7974582650358570E-8
4.1545999999999999E+1	-1.0000000000000000E+0	-4.2060946725541731E-7	-1.3200000524520870E+0	-2.8769100879344481E-8
4.2548999999999999E+1	-1.0000000000000000E+0	-6.0005345403624233E-7	-1.3799999952316280E+0	-3.0319274202383888E-8
4.3545999999999999E+1	-1.0000000000000000E+0	-8.3126712979719741E-7	-1.4400000572204590E+0	-3.2203509192640922E-8
4.4546999999999997E+1	-1.0000000000000000E+0	-1.1279296359134609E-6	-1.5000000000000000E+0	-3.4148371241826680E-8
4.5564999999999998E+1	-1.0000000000000000E+0	-1.4732909221493169E-6	-1.5599999427795410E+0	-3.6788367907547581E-8
4.6548000000000002E+1	-1.0000000000000000E+0	-1.8852185803552861E-6	-1.6200000047683720E+0	-3.9440060106699093E-8
4.7548000000000002E+1	-1.0000000000000000E+0	-2.3569202767248498E-6	-1.6799999475479130E+0	-4.2357232388212651E-8
4.8548000000000002E+1	-1.0000000000000000E+0	-2.8728602501360001E-6	-1.7400000095367429E+0	-4.5593132824706117E-8
4.9546999999999997E+1	-1.0000000000000000E+0	-3.4204958865302611E-6	-1.7999999523162840E+0	-4.9157740988903242E-8
5.0548000000000002E+1	-1.0000000000000000E+0	-3.9874789763416629E-6	-1.8600000143051150E+0	-5.3054023396725818E-8
5.1546999999999997E+1	-1.0000000000000000E+0	-4.5596207201015204E-6	-1.9199999570846560E+0	-5.7246982265724000E-8
5.2548000000000002E+1	-1.0000000000000000E+0	-5.1328679546713829E-6	-1.9800000190734861E+0	-6.1719873656329582E-8
5.3546999999999997E+1	-1.0000000000000000E+0	-5.7076740631600842E-6	-2.0399999618530269E+0	-6.6398264664258022E-8
5.4548000000000002E+1	-1.0000000000000000E+0	-6.2766921473667034E-6	-2.0999999046325679E+0	-7.1246908817101939E-8
5.5548000000000002E+1	-1.0000000000000000E+0	-6.8405684032768477E-6	-2.1600000858306880E+0	-7.5904630136847117E-8
5.6612999999999999E+1	-1.0000000000000000E+0	-7.4044510256499052E-6	-2.2200000286102290E+0	-8.1574675903084426E-8
5.7548000000000002E+1	-1.0000000000000000E+0	-7.9589635788579471E-6	-2.2799999713897710E+0	-8.7024808692603983E-8
5.8545999999999999E+1	-1.0000000000000000E+0	-8.6688041847082786E-6	-2.3399999141693120E+0	-8.9621046583943098E-8
6.0575000000000003E+1	-1.0000000000000000E+0	-9.2177151600481011E-6	-2.4000000953674321E+0	-9.6261167925604240E-8
6.1545999999999999E+1	-1.0000000000000000E+0	-9.7551983344601467E-6	-2.4600000381469731E+0	-1.0432195551857150E-7
6.2564999999999998E+1	-1.0000000000000000E+0	-1.0303401722921990E-5	-2.5199999809265141E+0	-1.0954141771435390E-7
6.3564000000000000E+1	-1.0000000000000000E+0	-1.0276889952365311E-5	-2.4600000381469731E+0	-9.1648722388981696E-8
6.4564999999999998E+1	-1.0000000000000000E+0	-1.0045575436379290E-5	-2.4000000953674321E+0	-8.2521964372972434E-8
6.5549000000000007E+1	-1.0000000000000000E+0	-9.7560096037341282E-6	-2.3399999141693120E+0	-7.2992946797967306E-8
6.6563999999999993E+1	-1.0000000000000000E+0	-9.4615552370669320E-6	-2.2799999713897710E+0	-6.4109812569768110E-8
6.7548000000000002E+1	-1.0000000000000000E+0	-9.1041965788463131E-6	-2.2200000286102290E+0	-5.6099032974543661E-8
6.8546999999999997E+1	-1.0000000000000000E+0	-8.7159205577336252E-6	-2.1600000858306880E+0	-4.8676540131964430E-8
6.9548000000000002E+1	-1.0000000000000000E+0	-8.2841434050351381E-6	-2.0999999046325679E+0	-4.1789256499669143E-8
7.0548000000000002E+1	-1.0000000000000000E+0	-7.8259890869958326E-6	-2.0399999618530269E+0	-3.5333645342916497E-8
7.1548000000000002E+1	-1.0000000000000000E+0	-7.3295318543387111E-6	-1.9800000190734861E+0	-2.9850234284367623E-8
7.2614000000000004E+1	-1.0000000000000000E+0	-6.8017598096048459E-6	-1.9199999570846560E+0	-2.3809707982991309E-8
7.3546999999999997E+1	-1.0000000000000000E+0	-6.2475369304593187E-6	-1.8600000143051150E+0	-1.8782330357680621E-8
7.4548000000000002E+1	-1.0000000000000000E+0	-5.6759604376566131E-6	-1.7999999523162840E+0	-1.4145636662021840E-8
7.5546000000000006E+1	-1.0000000000000000E+0	-5.0902854127343744E-6	-1.7400000095367429E+0	-9.9851371615500284E-9
7.6546000000000006E+1	-1.0000000000000000E+0	-4.5031083573121578E-6	-1.6799999475479130E+0	-6.3138605455037577E-9
7.7546000000000006E+1	-1.0000000000000000E+0	-3.9243122955667786E-6	-1.6200000047683720E+0	-3.0428528585702001E-9
7.8546000000000006E+1	-1.0000000000000000E+0	-3.3813321351772170E-6	-1.5599999427795410E+0	-9.4616414703097007E-10
8.0161000000000001E+1	-1.0000000000000000E+0	-2.9017530778219221E-6	-1.5000000000000000E+0	3.2361506807632172E-9
8.0546999999999997E+1	-1.0000000000000000E+0	-2.3927545953483791E-6	-1.4400000572204590E+0	4.4138075416810807E-9
8.1569000000000003E+1	-1.0000000000000000E+0	-1.9708120362338381E-6	-1.3799999952316280E+0	6.5781353697502709E-9
8.2549000000000007E+1	-1.0000000000000000E+0	-1.6093050589915949E-6	-1.3200000524520870E+0	8.3179472198935400E-9
8.3549000000000007E+1	-1.0000000000000000E+0	-1.3054703913439880E-6	-1.2599999904632571E+0	1.0060357880092850E-8
8.4546999999999997E+1	-1.0000000000000000E+0	-1.0531771295063659E-6	-1.2000000476837160E+0	1.1852812953350170E-8
8.5548000000000002E+1	-1.0000000000000000E+0	-8.4403143318922958E-7	-1.1399999856948850E+0	1.3541651355808429E-8
8.6563999999999993E+1	-1.0000000000000000E+0	-6.8267809183453210E-7	-1.0800000429153440E+0	1.5804422659471129E-8
8.7548000000000002E+1	-1.0000000000000000E+0	-5.5039259905242943E-7	-1.0199999809265139E+0	1.7714524958023500E-8
8.8612999999999999E+1	-1.0000000000000000E+0	-4.4444036007007531E-7	-9.5999997854232788E-1	2.0441889958533469E-8
8.9548000000000002E+1	-1.0000000000000000E+0	-3.5863340031028201E-7	-8.9999997615814209E-1	2.2918129616300579E-8
9.0548000000000002E+1	-1.0000000000000000E+0	-2.8855885148004750E-7	-8.3999997377395630E-1	2.5397634217938499E-8
9.1548000000000002E+1	-1.0000000000000000E+0	-2.3099100587842261E-7	-7.7999997138977051E-1	2.7786946077412719E-8
9.2548000000000002E+1	-1.0000000000000000E+0	-1.8323362382943739E-7	-7.2000002861022949E-1	3.0069600143178832E-8
9.3546000000000006E+1	-1.0000000000000000E+0	-1.4374292334196070E-7	-6.6000002622604370E-1	3.2198990140841488E-8
9.4546000000000006E+1	-1.0000000000000000E+0	-1.1130416055493700E-7	-6.0000002384185791E-1	3.4199594267647633E-8
9.5546000000000006E+1	-1.0000000000000000E+0	-8.2165634296416101E-8	-5.4000002145767212E-1	3.6000312064743411E-8
9.6563000000000002E+1	-1.0000000000000000E+0	-6.3260081617499963E-8	-4.7999998927116388E-1	3.7822712073420923E-8
9.7546999999999997E+1	-1.0000000000000000E+0	-3.8077569541883349E-8	-4.1999998688697809E-1	3.5133993492308952E-8
9.9724999999999994E+1	-1.0000000000000000E+0	-2.7951646330848231E-8	-3.6000001430511469E-1	3.7713839162734082E-8
1.0054700000000000E+2	-1.0000000000000000E+0	-1.9755793445597188E-8	-3.0000001192092901E-1	3.8950371816781632E-8
1.0154900000000001E+2	-1.0000000000000000E+0	-1.4348280785725360E-8	-2.3999999463558200E-1	4.0017496871769247E-8
1.0254700000000000E+2	-1.0000000000000000E+0	-1.1223042051256021E-8	-1.8000000715255740E-1	4.0926494193627150E-8
1.0354800000000000E+2	-1.0000000000000000E+0	-9.8098755785258618E-9	-1.1999999731779100E-1	4.1429245811741573E-8
1.0461400000000000E+2	-1.0000000000000000E+0	-9.5480796602487316E-9	-5.9999998658895493E-2	4.2689155321795618E-8
1.0554800000000000E+2	-1.0000000000000000E+0	-9.9290966559806293E-9	0.0000000000000000E+0	4.3539404970260882E-8
1.0654700000000000E+2	-1.0000000000000000E+0	-1.0589015886353080E-8	5.9999998658895493E-2	4.4299483192844491E-8
1.0754800000000000E+2	-1.0000000000000000E+0	-1.1342859096430400E-8	1.1999999731779100E-1	4.4990624559204661E-8
1.0854700000000000E+2	-1.0000000000000000E+0	-1.2136292859565859E-8	1.8000000715255740E-1	4.5464968678743389E-8
1.0954800000000000E+2	-1.0000000000000000E+0	-1.3011121957617890E-8	2.3999999463558200E-1	4.5705736084755699E-8
1.1054600000000001E+2	-1.0000000000000000E+0	-1.4031708239770070E-8	3.0000001192092901E-1	4.5647585267261093E-8
1.1154600000000001E+2	-1.0000000000000000E+0	-1.5290760657649119E-8	3.6000001430511469E-1	4.5454978447878602E-8
1.1254600000000001E+2	-1.0000000000000000E+0	-1.6831434024311420E-8	4.1999998688697809E-1	4.5448185659324742E-8
1.1354600000000001E+2	-1.0000000000000000E+0	-1.8764817255600971E-8	4.7999998927116388E-1	4.5902513789997101E-8
1.1454700000000000E+2	-1.0000000000000000E+0	-2.1144318296251189E-8	5.4000002145767212E-1	4.6933294584050600E-8
1.1554800000000000E+2	-1.0000000000000000E+0	-1.8447661176423938E-8	4.7999998927116388E-1	3.3163249923973132E-8
1.1654700000000000E+2	-1.0000000000000000E+0	-1.6001248326347192E-8	4.1999998688697809E-1	2.4585103730601080E-8
1.1754800000000000E+2	-1.0000000000000000E+0	-1.3827896161444640E-8	3.6000001430511469E-1	1.7329705670476869E-8
1.1931600000000000E+2	-1.0000000000000000E+0	-1.1732018023735691E-8	3.0000001192092901E-1	1.1250174125621020E-8
1.1954700000000000E+2	-1.0000000000000000E+0	-1.0183489607129560E-8	2.3999999463558200E-1	8.2456592664925665E-9
1.2061499999999999E+2	-1.0000000000000000E+0	-8.5198044175172072E-9	1.8000000715255740E-1	4.6676515985666364E-9
1.2154700000000000E+2	-1.0000000000000000E+0	-7.2733521427892364E-9	1.1999999731779100E-1	1.8917440947063820E-9
1.2254800000000000E+2	-1.0000000000000000E+0	-6.1975362619648422E-9	5.9999998658895493E-2	-4.7591924845491462E-10
1.2354700000000000E+2	-1.0000000000000000E+0	-5.3161262059120418E-9	0.0000000000000000E+0	-2.5281430282575461E-9
1.2454700000000000E+2	-1.0000000000000000E+0	-4.6646477791512097E-9	-5.9999998658895493E-2	-4.3626546819552914E-9
1.2554700000000000E+2	-1.0000000000000000E+0	-3.7442324796188586E-9	-1.1999999731779100E-1	-5.9720757228376442E-9
1.2654800000000000E+2	-1.0000000000000000E+0	-3.1858087279346141E-9	-1.8000000715255740E-1	-7.5859665216171379E-9
1.2754800000000000E+2	-1.0000000000000000E+0	-2.6860953461493860E-9	-2.3999999463558200E-1	-9.2228296111329655E-9
1.2854599999999999E+2	-1.0000000000000000E+0	-2.2912025610111190E-9	-3.0000001192092901E-1	-1.0863399957372620E-8
1.2954599999999999E+2	-1.0000000000000000E+0	-2.0026087454994008E-9	-3.6000001430511469E-1	-1.2512266778230699E-8
1.3054599999999999E+2	-1.0000000000000000E+0	-1.8343806473808399E-9	-4.1999998688697809E-1	-1.4133763492907290E-8
1.3154599999999999E+2	-1.0000000000000000E+0	-1.8015742231369809E-9	-4.7999998927116388E-1	-1.5664113561797421E-8
1.3254700000000000E+2	-1.0000000000000000E+0	-1.9650341354093830E-9	-5.4000002145767212E-1	-1.7087293358031271E-8
1.3354700000000000E+2	-1.0000000000000000E+0	-2.4033188772420999E-9	-6.0000002384185791E-1	-1.8359161302328178E-8
1.3454800000000000E+2	-1.0000000000000000E+0	-3.1825782009775590E-9	-6.6000002622604370E-1	-1.9438147091932478E-8
1.3554800000000000E+2	-1.0000000000000000E+0	-4.6986223800615789E-9	-7.2000002861022949E-1	-2.0063769312628210E-8
1.3661500000000001E+2	-1.0000000000000000E+0	-7.1708918802926291E-9	-7.7999997138977051E-1	-2.1396720839561570E-8
1.3754700000000000E+2	-1.0000000000000000E+0	-1.3190174286137340E-8	-8.3999997377395630E-1	-2.0320284122021800E-8
1.3899100000000001E+2	-1.0000000000000000E+0	-1.8477880558975809E-8	-8.9999997615814209E-1	-2.3554015626814359E-8
1.3954900000000001E+2	-1.0000000000000000E+0	-3.0670260997567311E-8	-9.5999997854232788E-1	-2.3945654348267450E-8
1.4054900000000001E+2	-1.0000000000000000E+0	-5.0268795348529238E-8	-1.0199999809265139E+0	-2.4576664259257089E-8
1.4154800000000000E+2	-1.0000000000000000E+0	-8.1492224524026824E-8	-1.0800000429153440E+0	-2.5120581170767761E-8
1.4254800000000000E+2	-1.0000000000000000E+0	-1.3359975525872869E-7	-1.1399999856948850E+0	-2.5478804843714901E-8
1.4356600000000000E+2	-1.0000000000000000E+0	-2.0436299053017140E-7	-1.2000000476837160E+0	-2.6294351584965628E-8
1.4455000000000001E+2	-1.0000000000000000E+0	-3.0990599952929188E-7	-1.2599999904632571E+0	-2.7242505140634421E-8
1.4554800000000000E+2	-1.0000000000000000E+0	-4.5538186554949789E-7	-1.3200000524520870E+0	-2.8504359761427619E-8
1.4654700000000000E+2	-1.0000000000000000E+0	-6.4817237444003695E-7	-1.3799999952316280E+0	-3.0135737461023382E-8
1.4754800000000000E+2	-1.0000000000000000E+0	-8.9585302021077951E-7	-1.4400000572204590E+0	-3.2102047242688059E-8
1.4854700000000000E+2	-1.0000000000000000E+0	-1.2121116697016989E-6	-1.5000000000000000E+0	-3.4070446019995870E-8
1.4956500000000000E+2	-1.0000000000000000E+0	-1.5785311688887300E-6	-1.5599999427795410E+0	-3.6755441357172458E-8
1.5054700000000000E+2	-1.0000000000000000E+0	-2.0174431938357880E-6	-1.6200000047683720E+0	-3.9438248222722898E-8
1.5154800000000000E+2	-1.0000000000000000E+0	-2.5148081022052789E-6	-1.6799999475479130E+0	-4.1959832941529378E-8
1.5261799999999999E+2	-1.0000000000000000E+0	-3.0564581265934980E-6	-1.7400000095367429E+0	-4.5625995426235022E-8
1.5354700000000000E+2	-1.0000000000000000E+0	-3.6306939819041868E-6	-1.7999999523162840E+0	-4.8966491306146047E-8
1.5456600000000000E+2	-1.0000000000000000E+0	-4.2239271351718344E-6	-1.8600000143051150E+0	-5.3099405761258822E-8
1.5554800000000000E+2	-1.0000000000000000E+0	-4.8213682930509094E-6	-1.9199999570846560E+0	-5.7292950828014000E-8
1.5654800000000000E+2	-1.0000000000000000E+0	-5.5884179346321616E-6	-1.9800000190734861E+0	-5.8782912759625112E-8
1.5861500000000001E+2	-1.0000000000000000E+0	-6.1677837948082006E-6	-2.0399999618530269E+0	-6.4328887106057664E-8
1.5954800000000000E+2	-1.0000000000000000E+0	-6.7529749685490970E-6	-2.0999999046325679E+0	-6.9565949445404840E-8
1.6054900000000001E+2	-1.0000000000000000E+0	-7.3297533162985928E-6	-2.1600000858306880E+0	-7.4910644798364956E-8
1.6154800000000000E+2	-1.0000000000000000E+0	-7.9048604675335810E-6	-2.2200000286102290E+0	-8.0359868093182740E-8
1.6254800000000000E+2	-1.0000000000000000E+0	-8.4672601587953977E-6	-2.2799999713897710E+0	-8.5976516572827677E-8
1.6354599999999999E+2	-1.0000000000000000E+0	-9.0282064775237814E-6	-2.3399999141693120E+0	-9.1736282570309413E-8
1.6454700000000000E+2	-1.0000000000000000E+0	-9.5814793894533068E-6	-2.4000000953674321E+0	-9.7651984276581061E-8
1.6554700000000000E+2	-1.0000000000000000E+0	-1.0142040082428140E-5	-2.4600000381469731E+0	-1.0529804228553990E-7
1.6658199999999999E+2	-1.0000000000000000E+0	-1.0658633073035160E-5	-2.5199999809265141E+0	-1.1023616508509800E-7
1.6754700000000000E+2	-1.0000000000000000E+0	-1.0657524398993701E-5	-2.4600000381469731E+0	-9.2285183939111448E-8
1.6863100000000000E+2	-1.0000000000000000E+0	-1.0429524991195651E-5	-2.4000000953674321E+0	-8.2640006837664259E-8
1.6954800000000000E+2	-1.0000000000000000E+0	-1.0155367817787919E-5	-2.3399999141693120E+0	-7.2856011001931620E-8
1.7055000000000001E+2	-1.0000000000000000E+0	-9.8290156529401429E-6	-2.2799999713897710E+0	-6.4200520455415244E-8
1.7156600000000000E+2	-1.0000000000000000E+0	-9.4902679848019034E-6	-2.2200000286102290E+0	-5.5986834723853462E-8
1.7254900000000001E+2	-1.0000000000000000E+0	-9.0835346782114357E-6	-2.1600000858306880E+0	-4.8506141325788121E-8
1.7354700000000000E+2	-1.0000000000000000E+0	-8.6435611592605710E-6	-2.0999999046325679E+0	-4.1611325940493771E-8
1.7454800000000000E+2	-1.0000000000000000E+0	-8.1600446719676256E-6	-2.0399999618530269E+0	-3.5206198845116887E-8
1.7554800000000000E+2	-1.0000000000000000E+0	-7.6429432738223113E-6	-1.9800000190734861E+0	-2.9343318885821649E-8
1.7654800000000000E+2	-1.0000000000000000E+0	-7.1651611506240442E-6	-1.9199999570846560E+0	-2.4484121396994851E-8
1.7825299999999999E+2	-1.0000000000000000E+0	-6.5665385591273662E-6	-1.8600000143051150E+0	-1.7711782263063469E-8
