Time (s),VDS,IDS,VG,IGS,cycle_id,diff_VG,direction,log_IDS
65.005,-1.0,1.16203545985627e-05,-2.460000038146973,-1.5664768682199792e-07,0,0.059999942779541016,volta,-4.93478061911872
65.997,-1.0,1.148725732491584e-05,-2.400000095367432,-1.4104580259299842e-07,0,0.059999942779541016,volta,-4.939783650235924
66.999,-1.0,1.129784595832461e-05,-2.339999914169312,-1.2740552790546642e-07,0,0.06000018119812012,volta,-4.947004350993361
67.997,-1.0,1.105772207665723e-05,-2.279999971389771,-1.1504805286222111e-07,0,0.059999942779541016,volta,-4.956334329760909
68.998,-1.0,1.078804689313984e-05,-2.220000028610229,-1.0313522835758701e-07,0,0.059999942779541904,volta,-4.967057174437573
69.999,-1.0,1.0493945410416932e-05,-2.160000085830688,-8.999165146406085e-08,0,0.059999942779541016,volta,-4.97906119933497
71.015,-1.0,1.017353497445583e-05,-2.099999904632568,-8.041804022695942e-08,0,0.06000018119812012,volta,-4.99252811756405
71.997,-1.0,9.821165804169139e-06,-2.039999961853027,-7.014285330342318e-08,0,0.059999942779541016,volta,-5.007836956992421
73.015,-1.0,9.47738499235129e-06,-1.980000019073486,-5.949114623149399e-08,0,0.059999942779540794,volta,-5.023311477013927
73.998,-1.0,9.094283086596988e-06,-1.919999957084656,-4.965253097566347e-08,0,0.06000006198883012,volta,-5.04123153121366
75.0,-1.0,8.68966344569344e-06,-1.860000014305115,-4.015868881879214e-08,0,0.059999942779541016,volta,-5.060997043632882
75.998,-1.0,8.256789442384614e-06,-1.799999952316284,-3.138935511515228e-08,0,0.06000006198883101,volta,-5.083188790271042
76.99899999999998,-1.0,7.79787478677463e-06,-1.740000009536743,-2.3244631108809696e-08,0,0.059999942779541016,volta,-5.108023742711694
78.13599999999998,-1.0,7.299187018361408e-06,-1.679999947547913,-1.538369609477286e-08,0,0.0600000619888299,volta,-5.1367255087975465
78.99899999999998,-1.0,6.756938546459424e-06,-1.620000004768372,-9.85111014983886e-09,0,0.059999942779541016,volta,-5.17025003091296
80.069,-1.0,6.180222044349648e-06,-1.559999942779541,-2.6263713426288855e-09,0,0.06000006198883101,volta,-5.208995921205125
80.99599999999998,-1.0,5.55500628252048e-06,-1.5,7.848381944342009e-10,0,0.059999942779541016,volta,-5.2553154455507585
82.65,-1.0,4.984278348274529e-06,-1.440000057220459,8.20841794535454e-09,0,0.059999942779541016,volta,-5.302397712387373
82.997,-1.0,4.187221293250332e-06,-1.379999995231628,7.895136100444233e-09,0,0.06000006198883101,volta,-5.378074086183558
84.051,-1.0,3.602398464863654e-06,-1.320000052452087,1.249496950350704e-08,0,0.059999942779541016,volta,-5.443408251116572
84.997,-1.0,2.999124490088434e-06,-1.259999990463257,1.497831370045333e-08,0,0.0600000619888299,volta,-5.523005506819216
85.998,-1.0,2.4626897356938567e-06,-1.200000047683716,1.755199541264574e-08,0,0.059999942779541016,volta,-5.6085902997174495
86.99899999999998,-1.0,1.9977176179963854e-06,-1.139999985694885,2.032551726927068e-08,0,0.06000006198883101,volta,-5.699465900300757
87.998,-1.0,1.6009902310543107e-06,-1.080000042915344,2.3209047128602833e-08,0,0.059999942779541016,volta,-5.795611318057059
89.0,-1.0,1.272177655664564e-06,-1.019999980926514,2.650108399393503e-08,0,0.06000006198883012,volta,-5.895452236574925
89.997,-1.0,9.939186611518382e-07,-0.9599999785423279,2.9551326719001736e-08,0,0.06000000238418601,volta,-6.002649155299185
91.015,-1.0,7.750853114885103e-07,-0.8999999761581421,3.321724051374986e-08,0,0.06000000238418579,volta,-6.1106504932748305
91.999,-1.0,5.890797183383256e-07,-0.8399999737739563,3.607021525908749e-08,0,0.06000000238418579,volta,-6.229825929505354
92.998,-1.0,4.3476222799654357e-07,-0.7799999713897705,3.824471406232988e-08,0,0.06000000238418579,volta,-6.361748194312619
93.997,-1.0,3.097035801147285e-07,-0.7200000286102295,3.961905292726442e-08,0,0.059999942779541016,volta,-6.50905377425224
94.999,-1.0,2.115216233278261e-07,-0.6600000262260437,3.9405573915018977e-08,0,0.06000000238418579,volta,-6.674645229178134
96.064,-1.0,1.37056474613928e-07,-0.6000000238418579,3.949524085555822e-08,0,0.06000000238418579,volta,-6.863100443359194
97.0,-1.0,8.153472208505262e-08,-0.5400000214576721,3.795536684947365e-08,0,0.06000000238418579,volta,-7.0886574047740325
98.013,-1.0,5.0208594615241964e-08,-0.4799999892711639,3.685991956103862e-08,0,0.060000032186508234,volta,-7.2992219347576475
98.998,-1.0,2.987208347349224e-08,-0.4199999868869781,3.628139566558275e-08,0,0.06000000238418579,volta,-7.524734485816181
99.996,-1.0,1.322447040763564e-08,-0.3600000143051147,2.548692279447096e-08,0,0.0599999725818634,volta,-7.8786217108728716
102.205,-1.0,1.21382832674044e-08,-0.300000011920929,3.254764280313793e-08,0,0.06000000238418568,volta,-7.915842731729786
102.998,-1.0,1.214077460787166e-08,-0.239999994635582,3.509986612471039e-08,0,0.06000001728534701,volta,-7.9157536034426155
103.999,-1.0,1.3350772931630672e-08,-0.1800000071525574,3.708233720089993e-08,0,0.0599999874830246,volta,-7.874493590462331
104.998,-1.0,1.503331681362852e-08,-0.119999997317791,3.868907683113321e-08,0,0.0600000098347664,volta,-7.822945190075887
105.998,-1.0,1.674687943875597e-08,-0.05999999865889549,4.021178412472182e-08,0,0.059999998658895506,volta,-7.776066106166641
106.997,-1.0,1.838614949178918e-08,0.0,4.16013001824922e-08,0,0.05999999865889549,volta,-7.735509213098067
107.999,-1.0,2.0071459161385967e-08,0.05999999865889549,4.294586375408471e-08,0,0.05999999865889549,volta,-7.697421053885066
108.997,-1.0,2.191222847613972e-08,0.119999997317791,4.4228603002238736e-08,0,0.059999998658895506,volta,-7.659313452394775
110.001,-1.0,2.40403661422306e-08,0.1800000071525574,4.5638454793106575e-08,0,0.0600000098347664,volta,-7.619058922179305
110.999,-1.0,2.659769116064581e-08,0.239999994635582,4.671337805461917e-08,0,0.0599999874830246,volta,-7.575156061102421
112.066,-1.0,2.9676533230826856e-08,0.300000011920929,4.93894347641799e-08,0,0.06000001728534701,volta,-7.527586834075605
112.998,-1.0,3.33940519681164e-08,0.3600000143051147,5.174379325012524e-08,0,0.06000000238418568,volta,-7.476330881316179
114.0,-1.0,3.793093128479086e-08,0.4199999868869781,5.466923624908304e-08,0,0.0599999725818634,volta,-7.421006494315911
115.0,-1.0,4.325720226461272e-08,0.4799999892711639,5.8270373415325594e-08,0,0.06000000238418579,volta,-7.363941572745566
115.997,-1.0,4.921031049320845e-08,0.5400000214576721,6.25431653134001e-08,0,0.060000032186508234,volta,-7.307943894769584
169.996,-1.0,1.194227934320224e-05,-2.460000038146973,-1.557669691010233e-07,1,0.059999942779541016,volta,-4.922912774404247
170.997,-1.0,1.182225878437748e-05,-2.400000095367432,-1.3981390623030173e-07,1,0.059999942779541016,volta,-4.927299538355676
171.997,-1.0,1.1630487279035148e-05,-2.339999914169312,-1.261433340005169e-07,1,0.06000018119812012,volta,-4.934402089384801
172.998,-1.0,1.138606057793368e-05,-2.279999971389771,-1.1368393870725412e-07,1,0.059999942779541016,volta,-4.943626509915624
173.998,-1.0,1.1093592547695152e-05,-2.220000028610229,-1.0210573719859893e-07,1,0.059999942779541904,volta,-4.954927789199678
175.0,-1.0,1.077527940651635e-05,-2.160000085830688,-8.912380167203082e-08,1,0.059999942779541016,volta,-4.96757145962338
176.015,-1.0,1.04328864836134e-05,-2.099999904632568,-8.067942047773613e-08,1,0.06000018119812012,volta,-4.981595517990165
177.065,-1.0,1.006814181891968e-05,-2.039999961853027,-6.930302731689153e-08,1,0.059999942779541016,volta,-4.9970506756484605
177.999,-1.0,9.673405656940304e-06,-1.980000019073486,-5.95412856796429e-08,1,0.059999942779540794,volta,-5.014420599585623
179.014,-1.0,9.314757335232569e-06,-1.919999957084656,-5.021083282485961e-08,1,0.06000006198883012,volta,-5.030828454706783
180.759,-1.0,8.900362445274368e-06,-1.860000014305115,-3.834298922811286e-08,1,0.059999942779541016,volta,-5.050592307425022
180.997,-1.0,8.408816938754171e-06,-1.799999952316284,-3.102375245589428e-08,1,0.06000006198883101,volta,-5.075265102075207
181.999,-1.0,7.93275648902636e-06,-1.740000009536743,-2.283040245742995e-08,1,0.059999942779541016,volta,-5.100575877000259
182.998,-1.0,7.422286216751672e-06,-1.679999947547913,-1.535206983760418e-08,1,0.0600000619888299,volta,-5.129462302485324
184.0,-1.0,6.877143277961295e-06,-1.620000004768372,-8.556437336437737e-09,1,0.059999942779541016,volta,-5.162591927500384
185.0,-1.0,6.296120773185976e-06,-1.559999942779541,-2.4578332702418485e-09,1,0.06000006198883101,volta,-5.200926949863546
185.996,-1.0,5.664669060934102e-06,-1.5,2.4234294571101596e-09,1,0.059999942779541016,volta,-5.2468254572407265
186.997,-1.0,5.001511453883722e-06,-1.440000057220459,6.432855137461501e-09,1,0.059999942779541016,volta,-5.300898732286566
187.997,-1.0,4.330272531660739e-06,-1.379999995231628,9.732151085017904e-09,1,0.06000006198883101,volta,-5.3634847698656225
188.996,-1.0,3.675764673971571e-06,-1.320000052452087,1.245356795465113e-08,1,0.059999942779541016,volta,-5.434652300350948
189.997,-1.0,3.069375679842778e-06,-1.259999990463257,1.50512100560718e-08,1,0.0600000619888299,volta,-5.51294995233147
190.998,-1.0,2.529869107092964e-06,-1.200000047683716,1.774903601869937e-08,1,0.059999942779541016,volta,-5.596901948206712
191.997,-1.0,2.057455731119262e-06,-1.139999985694885,1.9426215303042233e-08,1,0.06000006198883101,volta,-5.686669500435234
193.065,-1.0,1.656782615100383e-06,-1.080000042915344,2.350304129095093e-08,1,0.059999942779541016,volta,-5.780734471215995
193.997,-1.0,1.319669422628067e-06,-1.019999980926514,2.669135312771687e-08,1,0.06000006198883012,volta,-5.879534845997835
194.998,-1.0,1.041133373291814e-06,-0.9599999785423279,3.017990479747823e-08,1,0.06000000238418601,volta,-5.982493632089455
195.998,-1.0,8.061512630774815e-07,-0.8999999761581421,3.311080831736035e-08,1,0.06000000238418579,volta,-6.093583461226773
197.015,-1.0,6.181025469231827e-07,-0.8399999737739563,3.630986356029098e-08,1,0.06000000238418579,volta,-6.208939466871845
197.999,-1.0,3.7013720088907586e-07,-0.7799999713897705,2.6613987458290473e-08,1,0.06000000238418579,volta,-6.431637263651367
200.258,-1.0,2.801325251766684e-07,-0.7200000286102295,3.352773347842231e-08,1,0.059999942779541016,volta,-6.552636463883723
200.997,-1.0,1.915308303068741e-07,-0.6600000262260437,3.522136182709801e-08,1,0.06000000238418579,volta,-6.717761308617244
202.0,-1.0,1.24912745036454e-07,-0.6000000238418579,3.562120198807861e-08,1,0.06000000238418579,volta,-6.903393247641743
202.999,-1.0,7.527147971586601e-08,-0.5400000214576721,3.489797251177151e-08,1,0.06000000238418579,volta,-7.123369546352882
204.014,-1.0,4.719281321285962e-08,-0.4799999892711639,3.464896636273807e-08,1,0.060000032186508234,volta,-7.326124133137972
204.999,-1.0,2.884812388970204e-08,-0.4199999868869781,3.473060061764954e-08,1,0.06000000238418579,volta,-7.539882425518428
205.997,-1.0,1.901824475680769e-08,-0.3600000143051147,3.564669981415136e-08,1,0.0599999725818634,volta,-7.72082956771452
206.997,-1.0,1.452845310723205e-08,-0.300000011920929,3.69365089625262e-08,1,0.06000000238418568,volta,-7.8377806240197145
207.998,-1.0,1.337499622167115e-08,-0.239999994635582,3.7819038567477043e-08,1,0.06000001728534701,volta,-7.873706331991414
209.065,-1.0,1.388639248034451e-08,-0.1800000071525574,3.946918170072423e-08,1,0.0599999874830246,volta,-7.857410564152269
209.999,-1.0,1.527106796572753e-08,-0.119999997317791,4.053442381746208e-08,1,0.0600000098347664,volta,-7.816130589963627
210.997,-1.0,1.686366779551918e-08,-0.05999999865889549,4.1573954945306475e-08,1,0.059999998658895506,volta,-7.773047961732843
211.997,-1.0,1.8473459206802545e-08,0.0,4.273371700946882e-08,1,0.05999999865889549,volta,-7.733451774090834
212.998,-1.0,2.0081115437164954e-08,0.05999999865889549,4.390112096075426e-08,1,0.05999999865889549,volta,-7.697212167286419
213.997,-1.0,2.189419312514929e-08,0.119999997317791,4.4988574643411994e-08,1,0.059999998658895506,volta,-7.659671055393174
215.001,-1.0,2.4010468280266647e-08,0.1800000071525574,4.6364437622514736e-08,1,0.0600000098347664,volta,-7.619599369740866
215.999,-1.0,2.651683139731631e-08,0.239999994635582,4.798567232455753e-08,1,0.0599999874830246,volta,-7.576478372758812
216.998,-1.0,2.954483058204005e-08,0.300000011920929,4.9959801629029243e-08,1,0.06000001728534701,volta,-7.5295184960378805
217.997,-1.0,3.244905499855122e-08,0.3600000143051147,4.796084240865639e-08,1,0.06000000238418568,volta,-7.488797946471951
219.941,-1.0,3.709494933445967e-08,0.4199999868869781,5.17010825262787e-08,1,0.0599999725818634,volta,-7.430685217756754
220.998,-1.0,4.246498264137699e-08,0.4799999892711639,5.599880381623735e-08,1,0.06000000238418579,volta,-7.3719690491079035
221.998,-1.0,4.8382439388205967e-08,0.5400000214576721,6.082957781927689e-08,1,0.060000032186508234,volta,-7.315312238782543
274.998,-1.0,1.2094998055545148e-05,-2.460000038146973,-1.554232795797361e-07,2,0.059999942779541016,volta,-4.917394197121538
275.996,-1.0,1.197865003632614e-05,-2.400000095367432,-1.3923740027621534e-07,2,0.059999942779541016,volta,-4.9215921230827115
276.997,-1.0,1.180927756649908e-05,-2.339999914169312,-1.2629902812477672e-07,2,0.06000018119812012,volta,-4.927776669573581
278.688,-1.0,1.1552428986760788e-05,-2.279999971389771,-1.1193954918553571e-07,2,0.059999942779541016,volta,-4.937326692426459
278.997,-1.0,1.126273855334148e-05,-2.220000028610229,-1.009877905744361e-07,2,0.059999942779541904,volta,-4.948355997229072
280.0,-1.0,1.0947787814075132e-05,-2.160000085830688,-8.816242313969269e-08,2,0.059999942779541016,volta,-4.960673628513405
281.015,-1.0,1.059822989191161e-05,-2.099999904632568,-7.881014596478053e-08,2,0.06000018119812012,volta,-4.974766664204045
281.997,-1.0,1.022207743517356e-05,-2.039999961853027,-6.848654976465696e-08,2,0.059999942779541016,volta,-4.99046083346284
282.999,-1.0,9.814543773245532e-06,-1.980000019073486,-5.888199794412685e-08,2,0.059999942779540794,volta,-5.008129883671419
284.015,-1.0,9.41971666179597e-06,-1.919999957084656,-4.875034065321415e-08,2,0.06000006198883012,volta,-5.025962160271789
284.998,-1.0,8.982096915133297e-06,-1.860000014305115,-3.95228276772741e-08,2,0.059999942779541016,volta,-5.046622263292394
285.998,-1.0,8.523024007445201e-06,-1.799999952316284,-3.080090493767784e-08,2,0.06000006198883101,volta,-5.069406288245623
286.998,-1.0,8.036217877815943e-06,-1.740000009536743,-2.255424291774943e-08,2,0.059999942779541016,volta,-5.094948297178832
287.997,-1.0,7.516508958360647e-06,-1.679999947547913,-1.627429746520193e-08,2,0.0600000619888299,volta,-5.123983820598665
289.065,-1.0,6.9589982558682095e-06,-1.620000004768372,-8.36776514745452e-09,2,0.059999942779541016,volta,-5.157453272352076
289.998,-1.0,6.360065981425578e-06,-1.559999942779541,-2.4749875482399367e-09,2,0.06000006198883101,volta,-5.196538378813788
290.998,-1.0,5.7188353821402416e-06,-1.5,2.4265884857044276e-09,2,0.059999942779541016,volta,-5.242692404529927
291.998,-1.0,5.049769697507145e-06,-1.440000057220459,6.499183413666287e-09,2,0.059999942779541016,volta,-5.296728428095704
292.996,-1.0,4.368945155874826e-06,-1.379999995231628,9.740483974951529e-09,2,0.06000006198883101,volta,-5.359623407030058
293.998,-1.0,3.707245468831388e-06,-1.320000052452087,1.248002057252506e-08,2,0.059999942779541016,volta,-5.4309486569622045
294.997,-1.0,3.095856754953275e-06,-1.259999990463257,1.51045682628137e-08,2,0.0600000619888299,volta,-5.50921914229553
295.997,-1.0,2.2978472316026446e-06,-1.200000047683716,8.59552606868874e-09,2,0.059999942779541016,volta,-5.638678848005173
298.213,-1.0,1.995071215787902e-06,-1.139999985694885,1.769586788213928e-08,2,0.06000006198883101,volta,-5.700041597184405
298.997,-1.0,1.608146362741536e-06,-1.080000042915344,2.127180209754442e-08,2,0.059999942779541016,volta,-5.793674427205535
299.999,-1.0,1.284406152990414e-06,-1.019999980926514,2.50189433614878e-08,2,0.06000006198883012,volta,-5.891297622598385
300.997,-1.0,1.01521254691761e-06,-0.9599999785423279,2.8828717191231593e-08,2,0.06000000238418601,volta,-5.993443023475004
301.999,-1.0,7.888166919656215e-07,-0.8999999761581421,3.206304199920851e-08,2,0.06000000238418579,volta,-6.103023907965601
303.015,-1.0,6.065966999813099e-07,-0.8399999737739563,3.547289395555708e-08,2,0.06000000238418579,volta,-6.217099956675876
303.998,-1.0,4.505448316649563e-07,-0.7799999713897705,3.707635443106482e-08,2,0.06000000238418579,volta,-6.346261987868092
305.068,-1.0,3.240021442252328e-07,-0.7200000286102295,3.937314829727256e-08,2,0.059999942779541016,volta,-6.489452115651088
305.997,-1.0,2.2338771543672922e-07,-0.6600000262260437,3.995058506234272e-08,2,0.06000000238418579,volta,-6.650940713336493
306.998,-1.0,1.4688241378735261e-07,-0.6000000238418579,3.95675066044987e-08,2,0.06000000238418579,volta,-6.833030199119997
307.996,-1.0,8.885444202633153e-08,-0.5400000214576721,3.802213655035303e-08,2,0.06000000238418579,volta,-7.0513208559925875
309.014,-1.0,5.576629646952824e-08,-0.4799999892711639,3.706418283400126e-08,2,0.060000032186508234,volta,-7.2536281967538265
309.997,-1.0,3.37317693777095e-08,-0.4199999868869781,3.640120027625927e-08,2,0.06000000238418579,volta,-7.471960877582767
310.997,-1.0,2.170809487722636e-08,-0.3600000143051147,3.679376803233936e-08,2,0.0599999725818634,volta,-7.663378288964414
311.997,-1.0,1.596020560157285e-08,-0.300000011920929,3.7834130495184575e-08,2,0.06000000238418568,volta,-7.796961518307756
312.998,-1.0,1.400912985616287e-08,-0.239999994635582,3.900909462117852e-08,2,0.06000001728534701,volta,-7.853588839047046
313.998,-1.0,1.4211559040688828e-08,-0.1800000071525574,4.0079321195207747e-08,2,0.0599999874830246,volta,-7.8473582763562675
314.998,-1.0,1.546616523739885e-08,-0.119999997317791,4.0968238579353056e-08,2,0.0600000098347664,volta,-7.810617354218284
315.998,-1.0,1.63823017373943e-08,-0.05999999865889549,3.72905155643366e-08,2,0.059999998658895506,volta,-7.785625079277616
317.898,-1.0,1.800470350588057e-08,0.0,3.9254391737131293e-08,2,0.05999999865889549,volta,-7.744614026018339
318.998,-1.0,1.974769858748004e-08,0.05999999865889549,4.125950425759584e-08,2,0.05999999865889549,volta,-7.704483510113291
319.999,-1.0,2.1648311587796336e-08,0.119999997317791,4.243626605671125e-08,2,0.059999998658895506,volta,-7.664575969827812
321.064,-1.0,2.37837429750698e-08,0.1800000071525574,4.486209093101934e-08,2,0.0600000098347664,volta,-7.623719797089027
321.998,-1.0,2.635274043427671e-08,0.239999994635582,4.679235132698523e-08,2,0.0599999874830246,volta,-7.579174215608936
322.998,-1.0,2.94237256781571e-08,0.300000011920929,4.893766814006995e-08,2,0.06000001728534701,volta,-7.531302337080237
323.999,-1.0,3.314961105616021e-08,0.3600000143051147,5.147541770611497e-08,2,0.06000000238418568,volta,-7.479521562799309
324.997,-1.0,3.766119505144161e-08,0.4199999868869781,5.447138562431064e-08,2,0.0599999725818634,volta,-7.424105903225032
325.996,-1.0,4.2965329072330867e-08,0.4799999892711639,5.79974432923791e-08,2,0.06000000238418579,volta,-7.36688185758848
326.997,-1.0,4.889117377615548e-08,0.5400000214576721,6.227353566146121e-08,2,0.060000032186508234,volta,-7.3107695360970135
379.997,-1.0,1.225417781824945e-05,-2.460000038146973,-1.554057575958723e-07,3,0.059999942779541016,volta,-4.91171582198642
380.997,-1.0,1.214244366565254e-05,-2.400000095367432,-1.3911056839788221e-07,3,0.059999942779541016,volta,-4.915693902740905
381.998,-1.0,1.196120956592495e-05,-2.339999914169312,-1.251075332220353e-07,3,0.06000018119812012,volta,-4.922224900511054
382.998,-1.0,1.1711096703947992e-05,-2.279999971389771,-1.1246204678627691e-07,3,0.059999942779541016,volta,-4.931402432837917
383.998,-1.0,1.141353823186364e-05,-2.220000028610229,-1.016561981259656e-07,3,0.059999942779541904,volta,-4.942579702087593
385.068,-1.0,1.108926517190412e-05,-2.160000085830688,-8.796310879688463e-08,3,0.059999942779541016,volta,-4.95509723134052
386.015,-1.0,1.073424755304586e-05,-2.099999904632568,-7.866115936394635e-08,3,0.06000018119812012,volta,-4.969228393241076
386.997,-1.0,1.035165769280866e-05,-2.039999961853027,-6.832433996351028e-08,3,0.059999942779541016,volta,-4.984990097628065
